
T1458 000:280 SEGGER J-Link V4.98e Log File (0001ms, 0267ms total)
T1458 000:280 DLL Compiled: May  5 2015 11:00:52 (0001ms, 0267ms total)
T1458 000:280 Logging started @ 2026-05-14 18:48 (0001ms, 0267ms total)
T1458 000:281 JLINK_SetWarnOutHandler(...) (0000ms, 0267ms total)
T1458 000:281 JLINK_OpenEx(...)
Firmware: J-Link V9 compiled May  7 2021 16:26:12
Hardware: V9.20
S/N: 59800879
Feature(s): RDI, GDB, FlashDL, FlashBP, JFlash  returns O.K. (0265ms, 0532ms total)
T1458 000:546 JLINK_SetErrorOutHandler(...) (0000ms, 0532ms total)
T1458 000:546 JLINK_ExecCommand("ProjectFile = "D:\资料\广冷001\广冷-红外\V5.0.0（铁科院协议）（红外板RCT7）\云柜控制板CAN2.0_v5.0.0\USER\JLinkSettings.ini"", ...)  returns 0x00 (0001ms, 0533ms total)
T1458 000:547 JLINK_ExecCommand("Device = STM32F103RC", ...)Device "STM32F103RC" selected.  returns 0x00 (0000ms, 0533ms total)
T1458 000:547 JLINK_ExecCommand("DisableConnectionTimeout", ...)  returns 0x01 (0000ms, 0533ms total)
T1458 000:547 JLINK_GetHardwareVersion()  returns 0x16760 (0000ms, 0533ms total)
T1458 000:547 JLINK_GetDLLVersion()  returns 49805 (0000ms, 0533ms total)
T1458 000:547 JLINK_GetFirmwareString(...) (0000ms, 0533ms total)
T1458 000:548 JLINK_GetDLLVersion()  returns 49805 (0000ms, 0533ms total)
T1458 000:548 JLINK_GetCompileDateTime() (0000ms, 0533ms total)
T1458 000:548 JLINK_GetFirmwareString(...) (0000ms, 0533ms total)
T1458 000:548 JLINK_GetHardwareVersion()  returns 0x16760 (0000ms, 0533ms total)
T1458 000:548 JLINK_TIF_Select(JLINKARM_TIF_SWD)  returns 0x00 (0001ms, 0534ms total)
T1458 000:549 JLINK_SetSpeed(500) (0000ms, 0534ms total)
T1458 000:549 JLINK_GetId() >0x108 TIF>Found SWD-DP with ID 0x1BA01477 >0x0D TIF> >0x28 TIF> >0x0D TIF> >0x28 TIF> >0x0D TIF> >0x21 TIF> >0x0D TIF> >0x28 TIF> >0x0D TIF> >0x28 TIF> >0x0D TIF> >0x28 TIF> >0x0D TIF> >0x21 TIF> >0x0D TIF> >0x21 TIF> >0x0D TIF> >0x28 TIF> >0x0D TIF> >0x21 TIF> >0x0D TIF> >0x21 TIF> >0x108 TIF>Found SWD-DP with ID 0x1BA01477 >0x0D TIF> >0x21 TIF> >0x0D TIF> >0x28 TIF> >0x0D TIF> >0x28 TIF> >0x0D TIF> >0x21 TIF> >0x0D TIF> >0x28 TIF> >0x0D TIF> >0x21 TIF> >0x0D TIF> >0x21 TIF>
 >0x0D TIF> >0x21 TIF> >0x0D TIF> >0x21 TIF> >0x0D TIF> >0x28 TIF> >0x0D TIF> >0x28 TIF> >0x0D TIF> >0x21 TIF> >0x0D TIF> >0x28 TIF> >0x0D TIF> >0x28 TIF> >0x0D TIF> >0x28 TIF> >0x0D TIF> >0x21 TIF> >0x0D TIF> >0x21 TIF> >0x0D TIF> >0x28 TIF> >0x0D TIF> >0x21 TIF> >0x0D TIF> >0x21 TIF>Found Cortex-M3 r1p1, Little endian. -- CPU_WriteMem(4 bytes @ 0xE0002000) -- CPU_ReadMem(4 bytes @ 0xE000EDF0) -- CPU_ReadMem(4 bytes @ 0xE0002000)FPUnit: 6 code (BP) slots and 2 literal slots
 -- CPU_ReadMem(4 bytes @ 0xE000EDFC) -- CPU_ReadMem(4 bytes @ 0xE0001000) -- CPU_WriteMem(4 bytes @ 0xE0001000) -- CPU_ReadMem(4 bytes @ 0xE000ED88) -- CPU_WriteMem(4 bytes @ 0xE000ED88) -- CPU_ReadMem(4 bytes @ 0xE000ED88) -- CPU_WriteMem(4 bytes @ 0xE000ED88)CoreSight components:ROMTbl 0 @ E00FF000 -- CPU_ReadMem(16 bytes @ 0xE00FF000) -- CPU_ReadMem(16 bytes @ 0xE000EFF0) -- CPU_ReadMem(16 bytes @ 0xE000EFE0)ROMTbl 0 [0]: FFF0F000, CID: B105E00D, PID: 001BB000 SCS
 -- CPU_ReadMem(16 bytes @ 0xE0001FF0) -- CPU_ReadMem(16 bytes @ 0xE0001FE0)ROMTbl 0 [1]: FFF02000, CID: B105E00D, PID: 001BB002 DWT -- CPU_ReadMem(16 bytes @ 0xE0002FF0) -- CPU_ReadMem(16 bytes @ 0xE0002FE0)ROMTbl 0 [2]: FFF03000, CID: B105E00D, PID: 000BB003 FPB -- CPU_ReadMem(16 bytes @ 0xE0000FF0) -- CPU_ReadMem(16 bytes @ 0xE0000FE0)ROMTbl 0 [3]: FFF01000, CID: B105E00D, PID: 001BB001 ITM -- CPU_ReadMem(16 bytes @ 0xE00FF010) -- CPU_ReadMem(16 bytes @ 0xE0040FF0)
 -- CPU_ReadMem(16 bytes @ 0xE0040FE0)ROMTbl 0 [4]: FFF41000, CID: B105900D, PID: 001BB923 TPIU-Lite -- CPU_ReadMem(16 bytes @ 0xE0041FF0) -- CPU_ReadMem(16 bytes @ 0xE0041FE0)ROMTbl 0 [5]: FFF42000, CID: B105900D, PID: 101BB924 ETM-M3 >0x0D TIF> >0x21 TIF>  returns 0x1BA01477 (0072ms, 0606ms total)
T1458 000:621 JLINK_GetDLLVersion()  returns 49805 (0000ms, 0606ms total)
T1458 000:621 JLINK_CORE_GetFound()  returns 0x30000FF (0000ms, 0606ms total)
T1458 000:621 JLINK_GetDebugInfo(0x100) -- Value=0xE00FF003  returns 0x00 (0000ms, 0606ms total)
T1458 000:621 JLINK_ReadMem (0xE00FF000, 0x0020 Bytes, ...) -- CPU is running -- CPU_ReadMem(32 bytes @ 0xE00FF000) - Data: 03 F0 F0 FF 03 20 F0 FF 03 30 F0 FF 03 10 F0 FF ...  returns 0x00 (0003ms, 0609ms total)
T1458 000:624 JLINK_ReadMem (0xE000EFF0, 0x0010 Bytes, ...) -- CPU is running -- CPU_ReadMem(16 bytes @ 0xE000EFF0) - Data: 0D 00 00 00 E0 00 00 00 05 00 00 00 B1 00 00 00  returns 0x00 (0002ms, 0611ms total)
T1458 000:626 JLINK_ReadMem (0xE000EFD0, 0x0020 Bytes, ...) -- CPU is running -- CPU_ReadMem(32 bytes @ 0xE000EFD0) - Data: 04 00 00 00 00 00 00 00 00 00 00 00 00 00 00 00 ...  returns 0x00 (0003ms, 0614ms total)
T1458 000:629 JLINK_ReadMem (0xE0001FF0, 0x0010 Bytes, ...) -- CPU is running -- CPU_ReadMem(16 bytes @ 0xE0001FF0) - Data: 0D 00 00 00 E0 00 00 00 05 00 00 00 B1 00 00 00  returns 0x00 (0002ms, 0616ms total)
T1458 000:631 JLINK_ReadMem (0xE0001FD0, 0x0020 Bytes, ...) -- CPU is running -- CPU_ReadMem(32 bytes @ 0xE0001FD0) - Data: 04 00 00 00 00 00 00 00 00 00 00 00 00 00 00 00 ...  returns 0x00 (0003ms, 0619ms total)
T1458 000:634 JLINK_ReadMem (0xE0002FF0, 0x0010 Bytes, ...) -- CPU is running -- CPU_ReadMem(16 bytes @ 0xE0002FF0) - Data: 0D 00 00 00 E0 00 00 00 05 00 00 00 B1 00 00 00  returns 0x00 (0002ms, 0621ms total)
T1458 000:636 JLINK_ReadMem (0xE0002FD0, 0x0020 Bytes, ...) -- CPU is running -- CPU_ReadMem(32 bytes @ 0xE0002FD0) - Data: 04 00 00 00 00 00 00 00 00 00 00 00 00 00 00 00 ...  returns 0x00 (0003ms, 0624ms total)
T1458 000:639 JLINK_ReadMem (0xE0000FF0, 0x0010 Bytes, ...) -- CPU is running -- CPU_ReadMem(16 bytes @ 0xE0000FF0) - Data: 0D 00 00 00 E0 00 00 00 05 00 00 00 B1 00 00 00  returns 0x00 (0002ms, 0626ms total)
T1458 000:641 JLINK_ReadMem (0xE0000FD0, 0x0020 Bytes, ...) -- CPU is running -- CPU_ReadMem(32 bytes @ 0xE0000FD0) - Data: 04 00 00 00 00 00 00 00 00 00 00 00 00 00 00 00 ...  returns 0x00 (0003ms, 0629ms total)
T1458 000:644 JLINK_ReadMem (0xE0040FF0, 0x0010 Bytes, ...) -- CPU is running -- CPU_ReadMem(16 bytes @ 0xE0040FF0) - Data: 0D 00 00 00 90 00 00 00 05 00 00 00 B1 00 00 00  returns 0x00 (0003ms, 0632ms total)
T1458 000:647 JLINK_ReadMem (0xE0040FD0, 0x0020 Bytes, ...) -- CPU is running -- CPU_ReadMem(32 bytes @ 0xE0040FD0) - Data: 04 00 00 00 00 00 00 00 00 00 00 00 00 00 00 00 ...  returns 0x00 (0002ms, 0634ms total)
T1458 000:649 JLINK_ReadMem (0xE0041FF0, 0x0010 Bytes, ...) -- CPU is running -- CPU_ReadMem(16 bytes @ 0xE0041FF0) - Data: 0D 00 00 00 90 00 00 00 05 00 00 00 B1 00 00 00  returns 0x00 (0003ms, 0637ms total)
T1458 000:652 JLINK_ReadMem (0xE0041FD0, 0x0020 Bytes, ...) -- CPU is running -- CPU_ReadMem(32 bytes @ 0xE0041FD0) - Data: 04 00 00 00 00 00 00 00 00 00 00 00 00 00 00 00 ...  returns 0x00 (0003ms, 0640ms total)
T1458 000:655 JLINK_ReadMemU32(0xE000ED00, 0x0001 Items, ...) -- CPU is running -- CPU_ReadMem(4 bytes @ 0xE000ED00) - Data: 31 C2 1F 41  returns 0x01 (0002ms, 0642ms total)
T1458 000:657 JLINK_SetResetType(JLINKARM_RESET_TYPE_NORMAL)  returns JLINKARM_RESET_TYPE_NORMAL (0000ms, 0642ms total)
T1458 000:657 JLINK_Reset() -- CPU is running -- CPU_WriteMem(4 bytes @ 0xE000EDF0) -- CPU is running -- CPU_WriteMem(4 bytes @ 0xE000EDFC) >0x35 TIF> -- CPU is running -- CPU_WriteMem(4 bytes @ 0xE000ED0C) -- CPU is running -- CPU_ReadMem(4 bytes @ 0xE000EDF0) -- CPU is running -- CPU_ReadMem(4 bytes @ 0xE000EDF0) -- CPU is running -- CPU_WriteMem(4 bytes @ 0xE000EDF0) -- CPU is running -- CPU_WriteMem(4 bytes @ 0xE000EDFC) -- CPU is running -- CPU_ReadMem(4 bytes @ 0xE000EDF0)
 -- CPU_WriteMem(4 bytes @ 0xE0002000) -- CPU_ReadMem(4 bytes @ 0xE000EDFC) -- CPU_ReadMem(4 bytes @ 0xE0001000) (0050ms, 0692ms total)
T1458 000:707 JLINK_ReadReg(R15 (PC))  returns 0x080003D0 (0000ms, 0692ms total)
T1458 000:707 JLINK_ReadReg(XPSR)  returns 0x01000000 (0000ms, 0692ms total)
T1458 000:707 JLINK_Halt()  returns 0x00 (0000ms, 0692ms total)
T1458 000:707 JLINK_IsHalted()  returns TRUE (0000ms, 0692ms total)
T1458 000:707 JLINK_ReadMemU32(0xE000EDF0, 0x0001 Items, ...) -- CPU_ReadMem(4 bytes @ 0xE000EDF0) - Data: 03 00 03 00  returns 0x01 (0002ms, 0694ms total)
T1458 000:709 JLINK_WriteU32(0xE000EDF0, 0xA05F0003) -- CPU_WriteMem(4 bytes @ 0xE000EDF0)  returns 0x00 (0002ms, 0696ms total)
T1458 000:711 JLINK_WriteU32(0xE000EDFC, 0x01000000) -- CPU_WriteMem(4 bytes @ 0xE000EDFC)  returns 0x00 (0002ms, 0698ms total)
T1458 000:713 JLINK_GetHWStatus(...)  returns 0x00 (0000ms, 0698ms total)
T1458 000:713 JLINK_GetNumBPUnits(Type = 0xFFFFFF00)  returns 0x06 (0000ms, 0698ms total)
T1458 000:713 JLINK_GetNumBPUnits(Type = 0xF0)  returns 0x2000 (0000ms, 0698ms total)
T1458 000:713 JLINK_GetNumWPUnits()  returns 0x04 (0000ms, 0698ms total)
T1458 000:713 JLINK_GetSpeed()  returns 0x1F4 (0000ms, 0698ms total)
T1458 000:713 JLINK_ReadMemU32(0xE000E004, 0x0001 Items, ...) -- CPU_ReadMem(4 bytes @ 0xE000E004) - Data: 01 00 00 00  returns 0x01 (0003ms, 0701ms total)
T1458 000:716 JLINK_ReadMemU32(0xE000E004, 0x0001 Items, ...) -- CPU_ReadMem(4 bytes @ 0xE000E004) - Data: 01 00 00 00  returns 0x01 (0002ms, 0703ms total)
T1458 000:718 JLINK_WriteMem(0xE0001000, 0x001C Bytes, ...) - Data: 01 00 00 00 00 00 00 00 00 00 00 00 00 00 00 00 ... -- CPU_WriteMem(28 bytes @ 0xE0001000)  returns 0x1C (0003ms, 0706ms total)
T1458 000:721 JLINK_ReadMem (0xE0001000, 0x001C Bytes, ...) -- CPU_ReadMem(28 bytes @ 0xE0001000) - Data: 01 00 00 40 00 00 00 00 00 00 00 00 00 00 00 00 ...  returns 0x00 (0003ms, 0709ms total)
T1458 000:724 JLINK_ReadReg(R15 (PC))  returns 0x080003D0 (0000ms, 0709ms total)
T1458 000:724 JLINK_ReadReg(XPSR)  returns 0x01000000 (0000ms, 0709ms total)
T1458 000:801 JLINK_SetResetType(JLINKARM_RESET_TYPE_NORMAL)  returns JLINKARM_RESET_TYPE_NORMAL (0000ms, 0709ms total)
T1458 000:801 JLINK_Reset() -- CPU_WriteMem(4 bytes @ 0xE000EDF0) -- CPU_WriteMem(4 bytes @ 0xE000EDFC) >0x35 TIF> -- CPU_WriteMem(4 bytes @ 0xE000ED0C) -- CPU_ReadMem(4 bytes @ 0xE000EDF0) -- CPU_ReadMem(4 bytes @ 0xE000EDF0) -- CPU_WriteMem(4 bytes @ 0xE000EDF0) -- CPU_WriteMem(4 bytes @ 0xE000EDFC) -- CPU is running -- CPU_ReadMem(4 bytes @ 0xE000EDF0) -- CPU_WriteMem(4 bytes @ 0xE0002000) -- CPU_ReadMem(4 bytes @ 0xE000EDFC) -- CPU_ReadMem(4 bytes @ 0xE0001000) (0048ms, 0757ms total)
T1458 000:849 JLINK_ReadReg(R15 (PC))  returns 0x080003D0 (0000ms, 0757ms total)
T1458 000:849 JLINK_ReadReg(XPSR)  returns 0x01000000 (0000ms, 0757ms total)
T1458 001:053 JLINK_ReadMem (0x080003D0, 0x0030 Bytes, ...) -- CPU_ReadMem(64 bytes @ 0x080003C0) -- Updating C cache (64 bytes @ 0x080003C0) -- Read from C cache (48 bytes @ 0x080003D0) - Data: 09 48 80 47 09 48 00 47 FE E7 FE E7 FE E7 FE E7 ...  returns 0x00 (0004ms, 0761ms total)
T1458 001:057 JLINK_ReadMem (0x08000400, 0x000C Bytes, ...) -- CPU_ReadMem(64 bytes @ 0x08000400) -- Updating C cache (64 bytes @ 0x08000400) -- Read from C cache (12 bytes @ 0x08000400) - Data: F8 02 00 20 F8 08 00 20 F8 04 00 20  returns 0x00 (0005ms, 0766ms total)
T1458 001:877 JLINK_ReadMem (0x00000000, 0x0280 Bytes, ...) -- CPU_ReadMem(4 bytes @ 0x00000004) -- CPU_ReadMem(640 bytes @ 0x08000000) -- Updating C cache (640 bytes @ 0x08000000) -- Read from C cache (640 bytes @ 0x08000000) - Data: F8 08 00 20 D1 03 00 08 D7 01 00 08 D9 01 00 08 ...  returns 0x00 (0031ms, 0797ms total)
T1458 002:605 JLINK_ReadMem (0x00000000, 0x0400 Bytes, ...) -- CPU_ReadMem(320 bytes @ 0x08000280) -- Updating C cache (320 bytes @ 0x08000280) -- Read from C cache (1024 bytes @ 0x08000000) - Data: F8 08 00 20 D1 03 00 08 D7 01 00 08 D9 01 00 08 ...  returns 0x00 (0016ms, 0813ms total)
T1458 002:621 JLINK_ReadMem (0x00000400, 0x03D0 Bytes, ...) -- CPU_ReadMem(960 bytes @ 0x08000440) -- Updating C cache (960 bytes @ 0x08000440) -- Read from C cache (976 bytes @ 0x08000400) - Data: F8 02 00 20 F8 08 00 20 F8 04 00 20 F8 04 00 20 ...  returns 0x00 (0044ms, 0857ms total)
T04B8 002:679 JLINK_SetBPEx(Addr = 0x080001CA, Type = 0xFFFFFFF2)  returns 0x00000001 (0000ms, 0857ms total)
T04B8 002:679 JLINK_Go() -- CPU_WriteMem(4 bytes @ 0xE0002000) -- CPU_ReadMem(4 bytes @ 0xE0001000) -- CPU_WriteMem(4 bytes @ 0xE0002008) -- CPU_WriteMem(4 bytes @ 0xE000200C) -- CPU_WriteMem(4 bytes @ 0xE0002010) -- CPU_WriteMem(4 bytes @ 0xE0002014) -- CPU_WriteMem(4 bytes @ 0xE0002018) -- CPU_WriteMem(4 bytes @ 0xE000201C) -- CPU_WriteMem(4 bytes @ 0xE0001004) (0016ms, 0873ms total)
T04B8 002:796 JLINK_IsHalted()  returns TRUE (0021ms, 0894ms total)
T04B8 002:817 JLINK_Halt()  returns 0x00 (0000ms, 0873ms total)
T04B8 002:817 JLINK_IsHalted()  returns TRUE (0000ms, 0873ms total)
T04B8 002:817 JLINK_IsHalted()  returns TRUE (0000ms, 0873ms total)
T04B8 002:817 JLINK_IsHalted()  returns TRUE (0000ms, 0873ms total)
T04B8 002:817 JLINK_ReadReg(R15 (PC))  returns 0x080001CA (0000ms, 0873ms total)
T04B8 002:817 JLINK_ReadReg(XPSR)  returns 0x21000000 (0000ms, 0873ms total)
T04B8 002:817 JLINK_ClrBPEx(BPHandle = 0x00000001)  returns 0x00 (0000ms, 0873ms total)
T04B8 002:817 JLINK_ReadMemU32(0xE000ED30, 0x0001 Items, ...) -- CPU_ReadMem(4 bytes @ 0xE000ED30) - Data: 02 00 00 00  returns 0x01 (0001ms, 0874ms total)
T04B8 002:818 JLINK_ReadMemU32(0xE0001028, 0x0001 Items, ...) -- CPU_ReadMem(4 bytes @ 0xE0001028) - Data: 00 00 00 00  returns 0x01 (0002ms, 0876ms total)
T04B8 002:820 JLINK_ReadMemU32(0xE0001038, 0x0001 Items, ...) -- CPU_ReadMem(4 bytes @ 0xE0001038) - Data: 00 02 00 00  returns 0x01 (0001ms, 0877ms total)
T04B8 002:821 JLINK_ReadMemU32(0xE0001048, 0x0001 Items, ...) -- CPU_ReadMem(4 bytes @ 0xE0001048) - Data: 00 00 00 00  returns 0x01 (0001ms, 0878ms total)
T04B8 002:822 JLINK_ReadMemU32(0xE0001058, 0x0001 Items, ...) -- CPU_ReadMem(4 bytes @ 0xE0001058) - Data: 00 00 00 00  returns 0x01 (0002ms, 0880ms total)
T04B8 002:824 JLINK_ReadReg(R0)  returns 0x200002F8 (0000ms, 0880ms total)
T04B8 002:824 JLINK_ReadReg(R1)  returns 0x200004F8 (0000ms, 0880ms total)
T04B8 002:824 JLINK_ReadReg(R2)  returns 0x200004F8 (0000ms, 0880ms total)
T04B8 002:824 JLINK_ReadReg(R3)  returns 0x200004F8 (0000ms, 0880ms total)
T04B8 002:824 JLINK_ReadReg(R4)  returns 0x00000000 (0000ms, 0880ms total)
T04B8 002:824 JLINK_ReadReg(R5)  returns 0x20000294 (0000ms, 0880ms total)
T04B8 002:824 JLINK_ReadReg(R6)  returns 0x00000000 (0000ms, 0880ms total)
T04B8 002:824 JLINK_ReadReg(R7)  returns 0x00000000 (0000ms, 0880ms total)
T04B8 002:824 JLINK_ReadReg(R8)  returns 0x00000000 (0000ms, 0880ms total)
T04B8 002:824 JLINK_ReadReg(R9)  returns 0x20000160 (0000ms, 0880ms total)
T04B8 002:824 JLINK_ReadReg(R10)  returns 0x080021AC (0000ms, 0880ms total)
T04B8 002:824 JLINK_ReadReg(R11)  returns 0x00000000 (0000ms, 0880ms total)
T04B8 002:824 JLINK_ReadReg(R12)  returns 0x200002D4 (0000ms, 0880ms total)
T04B8 002:824 JLINK_ReadReg(R13 (SP))  returns 0x200008F8 (0000ms, 0880ms total)
T04B8 002:824 JLINK_ReadReg(R14)  returns 0x080001BB (0000ms, 0880ms total)
T04B8 002:824 JLINK_ReadReg(R15 (PC))  returns 0x080001CA (0000ms, 0880ms total)
T04B8 002:824 JLINK_ReadReg(XPSR)  returns 0x21000000 (0000ms, 0880ms total)
T04B8 002:824 JLINK_ReadReg(MSP)  returns 0x200008F8 (0000ms, 0880ms total)
T04B8 002:824 JLINK_ReadReg(PSP)  returns 0x20001000 (0000ms, 0880ms total)
T04B8 002:824 JLINK_ReadReg(CFBP)  returns 0x00000000 (0000ms, 0880ms total)
T1458 002:827 JLINK_ReadMem (0x080001CA, 0x0002 Bytes, ...) -- CPU_ReadMem(64 bytes @ 0x080001C0) -- Updating C cache (64 bytes @ 0x080001C0) -- Read from C cache (2 bytes @ 0x080001CA) - Data: 01 F0  returns 0x00 (0004ms, 0884ms total)
T1458 002:831 JLINK_ReadMem (0x080001CC, 0x003C Bytes, ...) -- CPU_ReadMem(64 bytes @ 0x08000200) -- Updating C cache (64 bytes @ 0x08000200) -- Read from C cache (60 bytes @ 0x080001CC) - Data: 9D FD 01 E0 01 F0 A6 FD FC E7 70 47 00 BF FE E7 ...  returns 0x00 (0004ms, 0888ms total)
T04B8 004:853 JLINK_Go() -- CPU_ReadMem(4 bytes @ 0xE0001000) -- CPU_WriteMem(4 bytes @ 0xE0002008) (0009ms, 0897ms total)
T04B8 004:962 JLINK_IsHalted()  returns FALSE (0001ms, 0898ms total)
T04B8 005:064 JLINK_IsHalted()  returns FALSE (0001ms, 0898ms total)
T04B8 005:166 JLINK_IsHalted()  returns FALSE (0001ms, 0898ms total)
T04B8 005:268 JLINK_IsHalted()  returns FALSE (0002ms, 0899ms total)
T04B8 005:371 JLINK_ReadMemU32(0xE0001004, 0x0001 Items, ...) -- CPU is running -- CPU_ReadMem(4 bytes @ 0xE0001004) - Data: BD 99 30 02  returns 0x01 (0002ms, 0899ms total)
T04B8 005:374 JLINK_IsHalted()  returns FALSE (0001ms, 0900ms total)
T04B8 005:476 JLINK_IsHalted()  returns FALSE (0002ms, 0901ms total)
T04B8 005:579 JLINK_IsHalted()  returns FALSE (0001ms, 0900ms total)
T04B8 005:681 JLINK_IsHalted()  returns FALSE (0001ms, 0900ms total)
T04B8 005:783 JLINK_IsHalted()  returns FALSE (0002ms, 0901ms total)
T04B8 005:885 JLINK_ReadMemU32(0xE0001004, 0x0001 Items, ...) -- CPU is running -- CPU_ReadMem(4 bytes @ 0xE0001004) - Data: 0C 97 66 04  returns 0x01 (0002ms, 0901ms total)
T04B8 005:888 JLINK_IsHalted()  returns FALSE (0003ms, 0904ms total)
T04B8 005:991 JLINK_IsHalted()  returns FALSE (0002ms, 0903ms total)
T04B8 006:093 JLINK_IsHalted()  returns FALSE (0002ms, 0903ms total)
T04B8 006:196 JLINK_IsHalted()  returns FALSE (0002ms, 0903ms total)
T1458 006:286 JLINK_SetBPEx(Addr = 0x080001D0, Type = 0xFFFFFFF2) -- CPU is running -- CPU is running -- CPU_WriteMem(4 bytes @ 0xE0002000) -- CPU is running -- CPU_WriteMem(4 bytes @ 0xE0002008)  returns 0x00000002 (0003ms, 0904ms total)
T04B8 006:298 JLINK_IsHalted()  returns TRUE (0020ms, 0924ms total)
T04B8 006:318 JLINK_Halt()  returns 0x00 (0000ms, 0904ms total)
T04B8 006:318 JLINK_IsHalted()  returns TRUE (0000ms, 0904ms total)
T04B8 006:318 JLINK_IsHalted()  returns TRUE (0000ms, 0904ms total)
T04B8 006:318 JLINK_IsHalted()  returns TRUE (0000ms, 0904ms total)
T04B8 006:318 JLINK_ReadReg(R15 (PC))  returns 0x080001D0 (0000ms, 0904ms total)
T04B8 006:318 JLINK_ReadReg(XPSR)  returns 0x61000000 (0000ms, 0904ms total)
T04B8 006:318 JLINK_ClrBPEx(BPHandle = 0x00000002)  returns 0x00 (0000ms, 0904ms total)
T04B8 006:318 JLINK_ReadMemU32(0xE000ED30, 0x0001 Items, ...) -- CPU_ReadMem(4 bytes @ 0xE000ED30) - Data: 02 00 00 00  returns 0x01 (0001ms, 0905ms total)
T04B8 006:319 JLINK_ReadMemU32(0xE0001028, 0x0001 Items, ...) -- CPU_ReadMem(4 bytes @ 0xE0001028) - Data: 00 00 00 00  returns 0x01 (0002ms, 0907ms total)
T04B8 006:321 JLINK_ReadMemU32(0xE0001038, 0x0001 Items, ...) -- CPU_ReadMem(4 bytes @ 0xE0001038) - Data: 00 02 00 00  returns 0x01 (0001ms, 0908ms total)
T04B8 006:322 JLINK_ReadMemU32(0xE0001048, 0x0001 Items, ...) -- CPU_ReadMem(4 bytes @ 0xE0001048) - Data: 00 00 00 00  returns 0x01 (0002ms, 0910ms total)
T04B8 006:324 JLINK_ReadMemU32(0xE0001058, 0x0001 Items, ...) -- CPU_ReadMem(4 bytes @ 0xE0001058) - Data: 00 00 00 00  returns 0x01 (0002ms, 0912ms total)
T04B8 006:327 JLINK_ReadReg(R0)  returns 0x0000001E (0000ms, 0912ms total)
T04B8 006:327 JLINK_ReadReg(R1)  returns 0x2000002C (0000ms, 0912ms total)
T04B8 006:327 JLINK_ReadReg(R2)  returns 0x20000284 (0000ms, 0912ms total)
T04B8 006:327 JLINK_ReadReg(R3)  returns 0x00000010 (0000ms, 0912ms total)
T04B8 006:327 JLINK_ReadReg(R4)  returns 0x00000000 (0000ms, 0912ms total)
T04B8 006:327 JLINK_ReadReg(R5)  returns 0x20000294 (0000ms, 0912ms total)
T04B8 006:327 JLINK_ReadReg(R6)  returns 0x00000000 (0000ms, 0912ms total)
T04B8 006:327 JLINK_ReadReg(R7)  returns 0x00000000 (0000ms, 0912ms total)
T04B8 006:327 JLINK_ReadReg(R8)  returns 0x00000000 (0000ms, 0912ms total)
T04B8 006:327 JLINK_ReadReg(R9)  returns 0x20000160 (0000ms, 0912ms total)
T04B8 006:327 JLINK_ReadReg(R10)  returns 0x080021AC (0000ms, 0912ms total)
T04B8 006:327 JLINK_ReadReg(R11)  returns 0x00000000 (0000ms, 0912ms total)
T04B8 006:327 JLINK_ReadReg(R12)  returns 0x00000020 (0000ms, 0912ms total)
T04B8 006:327 JLINK_ReadReg(R13 (SP))  returns 0x200008F8 (0000ms, 0912ms total)
T04B8 006:327 JLINK_ReadReg(R14)  returns 0x08001DBD (0000ms, 0912ms total)
T04B8 006:327 JLINK_ReadReg(R15 (PC))  returns 0x080001D0 (0000ms, 0912ms total)
T04B8 006:327 JLINK_ReadReg(XPSR)  returns 0x61000000 (0000ms, 0912ms total)
T04B8 006:327 JLINK_ReadReg(MSP)  returns 0x200008F8 (0000ms, 0912ms total)
T04B8 006:327 JLINK_ReadReg(PSP)  returns 0x20001000 (0000ms, 0912ms total)
T04B8 006:327 JLINK_ReadReg(CFBP)  returns 0x00000000 (0000ms, 0912ms total)
T1458 006:331 JLINK_ReadMem (0x080001D0, 0x003C Bytes, ...) -- CPU_ReadMem(128 bytes @ 0x080001C0) -- Updating C cache (128 bytes @ 0x080001C0) -- Read from C cache (60 bytes @ 0x080001D0) - Data: 01 F0 A6 FD FC E7 70 47 00 BF FE E7 00 BF FE E7 ...  returns 0x00 (0007ms, 0919ms total)
T04B8 008:173 JLINK_Go() -- CPU_ReadMem(4 bytes @ 0xE0001000) -- CPU_WriteMem(4 bytes @ 0xE0002008) (0008ms, 0927ms total)
T04B8 008:283 JLINK_IsHalted()  returns FALSE (0002ms, 0929ms total)
T04B8 008:385 JLINK_IsHalted()  returns FALSE (0002ms, 0929ms total)
T04B8 008:488 JLINK_IsHalted()  returns FALSE (0002ms, 0929ms total)
T04B8 008:591 JLINK_IsHalted()  returns FALSE (0002ms, 0929ms total)
T04B8 008:694 JLINK_IsHalted()  returns FALSE (0001ms, 0928ms total)
T04B8 008:796 JLINK_ReadMemU32(0xE0001004, 0x0001 Items, ...) -- CPU is running -- CPU_ReadMem(4 bytes @ 0xE0001004) - Data: A4 F4 C5 08  returns 0x01 (0001ms, 0928ms total)
T04B8 008:799 JLINK_IsHalted()  returns FALSE (0001ms, 0929ms total)
T04B8 008:901 JLINK_IsHalted()  returns FALSE (0001ms, 0929ms total)
T04B8 009:004 JLINK_IsHalted()  returns FALSE (0001ms, 0929ms total)
T04B8 009:106 JLINK_IsHalted()  returns FALSE (0001ms, 0929ms total)
T04B8 009:209 JLINK_IsHalted()  returns FALSE (0002ms, 0930ms total)
T04B8 009:312 JLINK_ReadMemU32(0xE0001004, 0x0001 Items, ...) -- CPU is running -- CPU_ReadMem(4 bytes @ 0xE0001004) - Data: 44 56 FC 0A  returns 0x01 (0002ms, 0930ms total)
T04B8 009:315 JLINK_IsHalted()  returns FALSE (0002ms, 0932ms total)
T04B8 009:417 JLINK_IsHalted()  returns FALSE (0002ms, 0932ms total)
T04B8 009:520 JLINK_IsHalted()  returns FALSE (0001ms, 0931ms total)
T04B8 009:622 JLINK_IsHalted()  returns FALSE (0002ms, 0932ms total)
T1458 009:637 JLINK_SetBPEx(Addr = 0x080001D0, Type = 0xFFFFFFF2) -- CPU is running -- CPU is running -- CPU_WriteMem(4 bytes @ 0xE0002000) -- CPU is running -- CPU_WriteMem(4 bytes @ 0xE0002008)  returns 0x00000003 (0003ms, 0933ms total)
T04B8 009:725 JLINK_IsHalted()  returns TRUE (0021ms, 0954ms total)
T04B8 009:746 JLINK_Halt()  returns 0x00 (0000ms, 0933ms total)
T04B8 009:746 JLINK_IsHalted()  returns TRUE (0000ms, 0933ms total)
T04B8 009:746 JLINK_IsHalted()  returns TRUE (0000ms, 0933ms total)
T04B8 009:746 JLINK_IsHalted()  returns TRUE (0000ms, 0933ms total)
T04B8 009:746 JLINK_ReadReg(R15 (PC))  returns 0x080001D0 (0000ms, 0933ms total)
T04B8 009:746 JLINK_ReadReg(XPSR)  returns 0x61000000 (0000ms, 0933ms total)
T04B8 009:746 JLINK_ClrBPEx(BPHandle = 0x00000003)  returns 0x00 (0000ms, 0933ms total)
T04B8 009:746 JLINK_ReadMemU32(0xE000ED30, 0x0001 Items, ...) -- CPU_ReadMem(4 bytes @ 0xE000ED30) - Data: 02 00 00 00  returns 0x01 (0002ms, 0935ms total)
T04B8 009:748 JLINK_ReadMemU32(0xE0001028, 0x0001 Items, ...) -- CPU_ReadMem(4 bytes @ 0xE0001028) - Data: 00 00 00 00  returns 0x01 (0002ms, 0937ms total)
T04B8 009:750 JLINK_ReadMemU32(0xE0001038, 0x0001 Items, ...) -- CPU_ReadMem(4 bytes @ 0xE0001038) - Data: 00 02 00 00  returns 0x01 (0002ms, 0939ms total)
T04B8 009:752 JLINK_ReadMemU32(0xE0001048, 0x0001 Items, ...) -- CPU_ReadMem(4 bytes @ 0xE0001048) - Data: 00 00 00 00  returns 0x01 (0002ms, 0941ms total)
T04B8 009:754 JLINK_ReadMemU32(0xE0001058, 0x0001 Items, ...) -- CPU_ReadMem(4 bytes @ 0xE0001058) - Data: 00 00 00 00  returns 0x01 (0002ms, 0943ms total)
T04B8 009:756 JLINK_ReadReg(R0)  returns 0x0000001E (0000ms, 0943ms total)
T04B8 009:756 JLINK_ReadReg(R1)  returns 0x2000002C (0000ms, 0943ms total)
T04B8 009:756 JLINK_ReadReg(R2)  returns 0x2000002C (0000ms, 0943ms total)
T04B8 009:756 JLINK_ReadReg(R3)  returns 0x00000010 (0000ms, 0943ms total)
T04B8 009:756 JLINK_ReadReg(R4)  returns 0x00000000 (0000ms, 0943ms total)
T04B8 009:756 JLINK_ReadReg(R5)  returns 0x20000294 (0000ms, 0943ms total)
T04B8 009:756 JLINK_ReadReg(R6)  returns 0x00000000 (0000ms, 0943ms total)
T04B8 009:756 JLINK_ReadReg(R7)  returns 0x00000000 (0000ms, 0943ms total)
T04B8 009:756 JLINK_ReadReg(R8)  returns 0x00000000 (0000ms, 0943ms total)
T04B8 009:756 JLINK_ReadReg(R9)  returns 0x20000160 (0000ms, 0943ms total)
T04B8 009:756 JLINK_ReadReg(R10)  returns 0x080021AC (0000ms, 0943ms total)
T04B8 009:756 JLINK_ReadReg(R11)  returns 0x00000000 (0000ms, 0943ms total)
T04B8 009:756 JLINK_ReadReg(R12)  returns 0x00000020 (0000ms, 0943ms total)
T04B8 009:756 JLINK_ReadReg(R13 (SP))  returns 0x200008F8 (0000ms, 0943ms total)
T04B8 009:756 JLINK_ReadReg(R14)  returns 0x08001CA1 (0000ms, 0943ms total)
T04B8 009:756 JLINK_ReadReg(R15 (PC))  returns 0x080001D0 (0000ms, 0943ms total)
T04B8 009:756 JLINK_ReadReg(XPSR)  returns 0x61000000 (0000ms, 0943ms total)
T04B8 009:756 JLINK_ReadReg(MSP)  returns 0x200008F8 (0000ms, 0943ms total)
T04B8 009:756 JLINK_ReadReg(PSP)  returns 0x20001000 (0000ms, 0943ms total)
T04B8 009:756 JLINK_ReadReg(CFBP)  returns 0x00000000 (0000ms, 0943ms total)
T04B8 011:664 JLINK_Go() -- CPU_ReadMem(4 bytes @ 0xE0001000) -- CPU_WriteMem(4 bytes @ 0xE0002008) (0008ms, 0951ms total)
T04B8 011:772 JLINK_IsHalted()  returns FALSE (0002ms, 0953ms total)
T04B8 011:875 JLINK_IsHalted()  returns FALSE (0001ms, 0952ms total)
T04B8 011:977 JLINK_IsHalted()  returns FALSE (0001ms, 0952ms total)
T04B8 012:079 JLINK_IsHalted()  returns FALSE (0001ms, 0952ms total)
T04B8 012:180 JLINK_ReadMemU32(0xE0001004, 0x0001 Items, ...) -- CPU is running -- CPU_ReadMem(4 bytes @ 0xE0001004) - Data: BB 3C 95 0E  returns 0x01 (0001ms, 0952ms total)
T04B8 012:185 JLINK_IsHalted()  returns FALSE (0001ms, 0953ms total)
T04B8 012:288 JLINK_IsHalted()  returns FALSE (0001ms, 0953ms total)
T04B8 012:390 JLINK_IsHalted()  returns FALSE (0001ms, 0953ms total)
T04B8 012:493 JLINK_IsHalted()  returns FALSE (0002ms, 0954ms total)
T04B8 012:596 JLINK_IsHalted()  returns FALSE (0003ms, 0955ms total)
T04B8 012:700 JLINK_ReadMemU32(0xE0001004, 0x0001 Items, ...) -- CPU is running -- CPU_ReadMem(4 bytes @ 0xE0001004) - Data: 67 9B CF 10  returns 0x01 (0001ms, 0953ms total)
T04B8 012:703 JLINK_IsHalted()  returns FALSE (0002ms, 0955ms total)
T04B8 012:805 JLINK_IsHalted()  returns FALSE (0002ms, 0955ms total)
T04B8 012:908 JLINK_IsHalted()  returns FALSE (0002ms, 0955ms total)
T04B8 013:011 JLINK_IsHalted()  returns FALSE (0001ms, 0954ms total)
T04B8 013:113 JLINK_Halt()  returns 0x00 (0021ms, 0974ms total)
T04B8 013:134 JLINK_IsHalted()  returns TRUE (0000ms, 0974ms total)
T04B8 013:134 JLINK_IsHalted()  returns TRUE (0000ms, 0974ms total)
T04B8 013:134 JLINK_IsHalted()  returns TRUE (0000ms, 0974ms total)
T04B8 013:134 JLINK_ReadReg(R15 (PC))  returns 0x08001D30 (0000ms, 0974ms total)
T04B8 013:134 JLINK_ReadReg(XPSR)  returns 0x81000000 (0000ms, 0974ms total)
T04B8 013:134 JLINK_ReadMemU32(0xE000ED30, 0x0001 Items, ...) -- CPU_ReadMem(4 bytes @ 0xE000ED30) - Data: 01 00 00 00  returns 0x01 (0001ms, 0975ms total)
T04B8 013:135 JLINK_ReadMemU32(0xE0001028, 0x0001 Items, ...) -- CPU_ReadMem(4 bytes @ 0xE0001028) - Data: 00 00 00 00  returns 0x01 (0002ms, 0977ms total)
T04B8 013:137 JLINK_ReadMemU32(0xE0001038, 0x0001 Items, ...) -- CPU_ReadMem(4 bytes @ 0xE0001038) - Data: 00 02 00 00  returns 0x01 (0002ms, 0979ms total)
T04B8 013:139 JLINK_ReadMemU32(0xE0001048, 0x0001 Items, ...) -- CPU_ReadMem(4 bytes @ 0xE0001048) - Data: 00 00 00 00  returns 0x01 (0002ms, 0981ms total)
T04B8 013:141 JLINK_ReadMemU32(0xE0001058, 0x0001 Items, ...) -- CPU_ReadMem(4 bytes @ 0xE0001058) - Data: 00 00 00 00  returns 0x01 (0002ms, 0983ms total)
T04B8 013:143 JLINK_ReadReg(R0)  returns 0x0000000F (0000ms, 0983ms total)
T04B8 013:143 JLINK_ReadReg(R1)  returns 0x0000000B (0000ms, 0983ms total)
T04B8 013:143 JLINK_ReadReg(R2)  returns 0x20000284 (0000ms, 0983ms total)
T04B8 013:143 JLINK_ReadReg(R3)  returns 0x00000008 (0000ms, 0983ms total)
T04B8 013:143 JLINK_ReadReg(R4)  returns 0x00004000 (0000ms, 0983ms total)
T04B8 013:143 JLINK_ReadReg(R5)  returns 0x00000001 (0000ms, 0983ms total)
T04B8 013:143 JLINK_ReadReg(R6)  returns 0x0000000E (0000ms, 0983ms total)
T04B8 013:143 JLINK_ReadReg(R7)  returns 0x00000000 (0000ms, 0983ms total)
T04B8 013:143 JLINK_ReadReg(R8)  returns 0x00000000 (0000ms, 0983ms total)
T04B8 013:143 JLINK_ReadReg(R9)  returns 0x20000160 (0000ms, 0983ms total)
T04B8 013:143 JLINK_ReadReg(R10)  returns 0x080021AC (0000ms, 0983ms total)
T04B8 013:143 JLINK_ReadReg(R11)  returns 0x00000000 (0000ms, 0983ms total)
T04B8 013:143 JLINK_ReadReg(R12)  returns 0x00000020 (0000ms, 0983ms total)
T04B8 013:143 JLINK_ReadReg(R13 (SP))  returns 0x200008D4 (0000ms, 0983ms total)
T04B8 013:143 JLINK_ReadReg(R14)  returns 0x08001DA9 (0001ms, 0984ms total)
T04B8 013:144 JLINK_ReadReg(R15 (PC))  returns 0x08001D30 (0000ms, 0984ms total)
T04B8 013:144 JLINK_ReadReg(XPSR)  returns 0x81000000 (0000ms, 0984ms total)
T04B8 013:144 JLINK_ReadReg(MSP)  returns 0x200008D4 (0000ms, 0984ms total)
T04B8 013:144 JLINK_ReadReg(PSP)  returns 0x20001000 (0000ms, 0984ms total)
T04B8 013:144 JLINK_ReadReg(CFBP)  returns 0x00000000 (0000ms, 0984ms total)
T1458 013:144 JLINK_ReadMem (0x200008E0, 0x0004 Bytes, ...) -- CPU_ReadMem(64 bytes @ 0x200008C0) -- Updating C cache (64 bytes @ 0x200008C0) -- Read from C cache (4 bytes @ 0x200008E0) - Data: 71 1F 00 08  returns 0x00 (0004ms, 0988ms total)
T1458 013:148 JLINK_ReadMem (0x200008D4, 0x0004 Bytes, ...) -- Read from C cache (4 bytes @ 0x200008D4) - Data: 00 00 00 00  returns 0x00 (0000ms, 0988ms total)
T1458 013:148 JLINK_ReadMem (0x200008D8, 0x0004 Bytes, ...) -- Read from C cache (4 bytes @ 0x200008D8) - Data: 94 02 00 20  returns 0x00 (0000ms, 0988ms total)
T1458 013:148 JLINK_ReadMem (0x200008DC, 0x0004 Bytes, ...) -- Read from C cache (4 bytes @ 0x200008DC) - Data: 00 00 00 00  returns 0x00 (0000ms, 0988ms total)
T1458 013:148 JLINK_ReadMem (0x200008E4, 0x0004 Bytes, ...) -- Read from C cache (4 bytes @ 0x200008E4) - Data: A1 1C 00 08  returns 0x00 (0000ms, 0988ms total)
T1458 013:149 JLINK_ReadMem (0x200008EC, 0x0004 Bytes, ...) -- Read from C cache (4 bytes @ 0x200008EC) - Data: 27 1D 00 08  returns 0x00 (0000ms, 0988ms total)
T1458 013:149 JLINK_ReadMem (0x200008E8, 0x0004 Bytes, ...) -- Read from C cache (4 bytes @ 0x200008E8) - Data: 00 00 00 00  returns 0x00 (0000ms, 0988ms total)
T1458 013:149 JLINK_ReadMem (0x200008F4, 0x0004 Bytes, ...) -- Read from C cache (4 bytes @ 0x200008F4) - Data: D5 01 00 08  returns 0x00 (0000ms, 0988ms total)
T1458 013:149 JLINK_ReadMem (0x200008F0, 0x0004 Bytes, ...) -- Read from C cache (4 bytes @ 0x200008F0) - Data: 00 00 00 00  returns 0x00 (0000ms, 0988ms total)
T1458 013:151 JLINK_ReadMem (0x08001D30, 0x003C Bytes, ...) -- CPU_ReadMem(128 bytes @ 0x08001D00) -- Updating C cache (128 bytes @ 0x08001D00) -- Read from C cache (60 bytes @ 0x08001D30) - Data: 00 BF 00 BF 49 1C 81 42 FA D3 70 47 70 B5 06 46 ...  returns 0x00 (0007ms, 0996ms total)
T1458 013:842 JLINK_Close() -- CPU_ReadMem(4 bytes @ 0xE0001000) >0x42 TIF> >0x28 TIF> >0x0D TIF> >0x21 TIF> (0006ms, 1002ms total)
T1458 013:842  (0006ms, 1002ms total)
T1458 013:842 Closed (0006ms, 1002ms total)
